!Port 1 = Pin 2 = Input
!Port 2 = Pin 4 = Output 1
!Port 3 = Pin 6 = Output 2
# MHZ S DB R 50
3.0000 -9.7330 -174.4870 -3.5466 5.2987 -3.5342 5.2821
  -3.5357 5.3067 -10.0039 -175.0080 -3.6617 5.0439
  -3.5347 5.2928 -3.6653 5.0562 -10.0047 -174.9630
12.9965 -9.7656 -176.3820 -3.5585 3.5669 -3.5459 3.5846
  -3.5544 3.5819 -10.0464 -178.0850 -3.6903 2.7657
  -3.5457 3.5866 -3.6909 2.7538 -10.0472 -178.0370
22.9929 -9.7720 -178.1090 -3.5615 1.8483 -3.5489 1.8759
  -3.5568 1.8454 -10.0777 178.9970 -3.7010 0.4687
  -3.5516 1.8821 -3.7090 0.4662 -10.0924 179.0080
32.9894 -9.7869 -179.8130 -3.5696 0.0978 -3.5546 0.0993
  -3.5679 0.0995 -10.1067 176.0520 -3.7234 -1.9161
  -3.5547 0.1250 -3.7250 -1.8657 -10.1289 176.0940
42.9859 -9.8103 178.5530 -3.5740 -1.6150 -3.5625 -1.6647
  -3.5679 -1.6160 -10.1275 173.1120 -3.7386 -4.2228
  -3.5610 -1.6302 -3.7468 -4.2043 -10.1687 173.1090
52.9824 -9.8201 177.2030 -3.5777 -3.0035 -3.5623 -3.0558
  -3.5677 -3.0028 -10.1691 170.5500 -3.7638 -6.2121
  -3.5630 -3.0249 -3.7690 -6.1560 -10.2168 170.5510
62.9788 -9.8402 176.7240 -3.5772 -3.5466 -3.5610 -3.5987
  -3.5682 -3.4976 -10.2164 168.8980 -3.7857 -7.3029
  -3.5649 -3.5752 -3.7930 -7.2772 -10.2582 168.8380
72.9753 -9.8575 176.2930 -3.5715 -4.0515 -3.5611 -4.1523
  -3.5707 -4.0631 -10.2726 167.2610 -3.8160 -8.4046
  -3.5659 -4.1601 -3.8221 -8.3768 -10.3018 167.1290
82.9718 -9.8812 175.7720 -3.5763 -4.5559 -3.5701 -4.6715
  -3.5681 -4.5471 -10.3460 165.6760 -3.8442 -9.4638
  -3.5684 -4.6826 -3.8516 -9.4471 -10.3497 165.4530
92.9682 -9.9120 175.3130 -3.5705 -5.0790 -3.5649 -5.2092
  -3.5674 -5.1219 -10.4228 163.9860 -3.8779 -10.5209
  -3.5717 -5.2477 -3.8819 -10.5101 -10.4010 163.7990
102.9650 -9.9344 174.7930 -3.5652 -5.6739 -3.5674 -5.7793
  -3.5593 -5.6768 -10.5053 162.2980 -3.9140 -11.5820
  -3.5754 -5.7230 -3.9141 -11.5534 -10.4502 162.1700
112.9610 -9.9477 174.3150 -3.5645 -6.2292 -3.5700 -6.2752
  -3.5594 -6.2038 -10.5924 160.7080 -3.9555 -12.5961
  -3.5811 -6.2374 -3.9579 -12.5840 -10.5018 160.6530
122.9580 -9.9660 173.8550 -3.5640 -6.7805 -3.5788 -6.7932
  -3.5530 -6.7869 -10.6724 159.0670 -3.9937 -13.6315
  -3.5797 -6.8024 -3.9956 -13.6244 -10.5628 159.1770
132.9540 -9.9720 173.3690 -3.5589 -7.3286 -3.5794 -7.3055
  -3.5528 -7.3479 -10.7504 157.4760 -4.0357 -14.6503
  -3.5860 -7.2900 -4.0402 -14.6292 -10.6309 157.6570
142.9510 -9.9774 172.9950 -3.5625 -7.8927 -3.5783 -7.8156
  -3.5553 -7.8670 -10.8292 155.8830 -4.0771 -15.6028
  -3.5814 -7.8312 -4.0797 -15.6186 -10.7149 156.2430
152.9470 -9.9753 172.6950 -3.5668 -8.4328 -3.5780 -8.3113
  -3.5581 -8.4202 -10.9203 154.4610 -4.1190 -16.6075
  -3.5816 -8.3120 -4.1201 -16.6014 -10.8126 154.8520
162.9440 -9.9700 172.3940 -3.5661 -8.9729 -3.5732 -8.8204
  -3.5609 -8.9783 -11.0087 153.0470 -4.1605 -17.6234
  -3.5792 -8.8188 -4.1663 -17.6008 -10.9263 153.5980
172.9400 -9.9835 172.2210 -3.5714 -9.5172 -3.5705 -9.3678
  -3.5660 -9.5049 -11.1030 151.6790 -4.2044 -18.5941
  -3.5753 -9.3566 -4.2089 -18.5866 -11.0405 152.2820
182.9370 -10.0045 172.0410 -3.5739 -10.0533 -3.5755 -9.8700
  -3.5651 -10.0136 -11.2001 150.3470 -4.2567 -19.5725
  -3.5790 -9.8590 -4.2616 -19.5608 -11.1466 150.9690
192.9330 -10.0117 171.8350 -3.5738 -10.5554 -3.5757 -10.3891
  -3.5682 -10.5501 -11.2956 149.0160 -4.3101 -20.5432
  -3.5797 -10.3669 -4.3179 -20.5034 -11.2593 149.7010
202.9290 -10.0311 171.5860 -3.5714 -11.0863 -3.5719 -10.9115
  -3.5665 -11.0579 -11.3938 147.7110 -4.3663 -21.5175
  -3.5743 -10.9078 -4.3693 -21.4699 -11.3672 148.3590
212.9260 -10.0574 171.3180 -3.5744 -11.6006 -3.5772 -11.4141
  -3.5659 -11.5744 -11.5048 146.3510 -4.4299 -22.3967
  -3.5837 -11.4367 -4.4340 -22.3837 -11.4794 147.0160
222.9220 -10.0840 170.9210 -3.5838 -12.1232 -3.5805 -11.9128
  -3.5757 -12.1055 -11.6155 144.9500 -4.4999 -23.3211
  -3.5860 -11.9218 -4.5025 -23.3103 -11.5908 145.6130
232.9190 -10.1171 170.5470 -3.5835 -12.6644 -3.5809 -12.4208
  -3.5792 -12.6471 -11.7269 143.5150 -4.5649 -24.2540
  -3.5869 -12.4262 -4.5657 -24.2184 -11.7079 144.1860
242.9150 -10.1516 170.1570 -3.5912 -13.2269 -3.5756 -12.9637
  -3.5779 -13.2017 -11.8306 142.0230 -4.6259 -25.1262
  -3.5863 -12.9582 -4.6295 -25.1290 -11.8319 142.7420
252.9120 -10.1939 169.6400 -3.5922 -13.7217 -3.5769 -13.4295
  -3.5869 -13.6887 -11.9340 140.5370 -4.6979 -25.9610
  -3.5853 -13.4547 -4.6987 -25.9692 -11.9592 141.2630
262.9080 -10.2128 169.1040 -3.5953 -14.2664 -3.5767 -13.9627
  -3.5903 -14.2252 -12.0324 139.0910 -4.7568 -26.7963
  -3.5834 -13.9502 -4.7677 -26.7611 -12.0865 139.7870
272.9050 -10.2240 168.4930 -3.5987 -14.7674 -3.5735 -14.4847
  -3.5964 -14.7414 -12.1368 137.6860 -4.8320 -27.6132
  -3.5761 -14.4679 -4.8324 -27.6116 -12.2213 138.3690
282.9010 -10.2310 168.0760 -3.5975 -15.2898 -3.5653 -15.0248
  -3.5954 -15.2902 -12.2412 136.3820 -4.8860 -28.4584
  -3.5713 -15.0259 -4.8945 -28.4360 -12.3789 136.9370
292.8980 -10.2375 167.6700 -3.5986 -15.7907 -3.5644 -15.5635
  -3.5937 -15.7595 -12.3526 135.0910 -4.9485 -29.2418
  -3.5666 -15.5422 -4.9607 -29.2181 -12.5161 135.5400
302.8940 -10.2526 167.2990 -3.6013 -16.2675 -3.5630 -16.0755
  -3.6012 -16.2406 -12.4748 133.9940 -5.0202 -30.0066
  -3.5668 -16.0695 -5.0273 -30.0244 -12.6517 134.2120
312.8910 -10.2744 167.0730 -3.6036 -16.7188 -3.5629 -16.5935
  -3.5987 -16.7451 -12.6038 132.8700 -5.0875 -30.8374
  -3.5668 -16.6066 -5.0982 -30.8041 -12.7932 132.9070
322.8870 -10.2932 166.8340 -3.6015 -17.2458 -3.5650 -17.1776
  -3.5981 -17.2125 -12.7505 131.8710 -5.1568 -31.6298
  -3.5695 -17.1632 -5.1643 -31.6599 -12.9181 131.6900
332.8830 -10.3064 166.6290 -3.5979 -17.7685 -3.5638 -17.7111
  -3.5949 -17.7664 -12.9149 130.8430 -5.2280 -32.4294
  -3.5753 -17.6945 -5.2374 -32.4309 -13.0436 130.5140
342.8800 -10.3304 166.3900 -3.5914 -18.2479 -3.5630 -18.2320
  -3.5880 -18.2571 -13.0775 129.7670 -5.2989 -33.1889
  -3.5700 -18.2248 -5.2998 -33.2122 -13.1699 129.4750
352.8760 -10.3559 166.1610 -3.5829 -18.7571 -3.5647 -18.7282
  -3.5797 -18.7404 -13.2512 128.6730 -5.3647 -33.9114
  -3.5735 -18.7192 -5.3747 -33.9311 -13.2881 128.3690
362.8730 -10.4040 165.8800 -3.5808 -19.3011 -3.5696 -19.2460
  -3.5811 -19.2517 -13.4345 127.5160 -5.4471 -34.6359
  -3.5741 -19.1970 -5.4488 -34.6225 -13.4140 127.3890
372.8690 -10.4434 165.5600 -3.5800 -19.8276 -3.5722 -19.7635
  -3.5758 -19.8225 -13.6113 126.3330 -5.5223 -35.3807
  -3.5836 -19.7065 -5.5297 -35.3567 -13.5500 126.4260
382.8660 -10.4604 165.1810 -3.5817 -20.3840 -3.5744 -20.2713
  -3.5813 -20.3606 -13.7829 125.1700 -5.5964 -36.1369
  -3.5867 -20.2493 -5.6033 -36.1060 -13.7043 125.4840
392.8620 -10.4916 164.8720 -3.5852 -20.9211 -3.5808 -20.7675
  -3.5844 -20.9089 -13.9533 124.0110 -5.6739 -36.8128
  -3.5882 -20.7665 -5.6807 -36.8104 -13.8741 124.5210
402.8590 -10.5077 164.5550 -3.5866 -21.4675 -3.5770 -21.2860
  -3.5855 -21.4130 -14.1204 122.8490 -5.7477 -37.4414
  -3.5852 -21.2089 -5.7509 -37.4480 -14.0595 123.5650
412.8550 -10.5131 164.2570 -3.5912 -21.9762 -3.5794 -21.7380
  -3.5854 -21.9371 -14.2742 121.7690 -5.8201 -38.1422
  -3.5822 -21.7238 -5.8237 -38.1140 -14.2547 122.5330
422.8520 -10.5193 163.9320 -3.5946 -22.5064 -3.5742 -22.2445
  -3.5882 -22.4765 -14.4218 120.7600 -5.8873 -38.8203
  -3.5768 -22.2287 -5.8928 -38.8260 -14.4580 121.5880
432.8480 -10.5157 163.7980 -3.5972 -23.0178 -3.5738 -22.7792
  -3.5892 -23.0125 -14.5808 119.8940 -5.9588 -39.5022
  -3.5757 -22.7687 -5.9663 -39.5111 -14.6725 120.6380
442.8450 -10.5124 163.5550 -3.6003 -23.5408 -3.5688 -23.3162
  -3.5943 -23.5147 -14.7497 118.9450 -6.0343 -40.1976
  -3.5701 -23.2780 -6.0392 -40.2050 -14.8882 119.6170
452.8410 -10.5289 163.4590 -3.5986 -24.0218 -3.5627 -23.8047
  -3.5938 -23.9877 -14.9384 118.1160 -6.1061 -40.8297
  -3.5693 -23.7938 -6.1134 -40.8369 -15.0920 118.5030
462.8380 -10.5450 163.3250 -3.5990 -24.5078 -3.5629 -24.3049
  -3.5919 -24.4924 -15.1242 117.2760 -6.1772 -41.5175
  -3.5673 -24.3148 -6.1879 -41.5265 -15.2970 117.4130
472.8340 -10.5679 163.1660 -3.5933 -25.0041 -3.5587 -24.8427
  -3.5923 -25.0026 -15.3216 116.4200 -6.2587 -42.1902
  -3.5630 -24.8305 -6.2616 -42.1726 -15.4826 116.3880
482.8310 -10.6028 163.0120 -3.5930 -25.5095 -3.5589 -25.3644
  -3.5907 -25.5114 -15.5211 115.5350 -6.3354 -42.8684
  -3.5658 -25.3764 -6.3432 -42.8472 -15.6650 115.3470
492.8270 -10.6237 162.7340 -3.5899 -26.0414 -3.5539 -25.8840
  -3.5854 -25.9988 -15.7178 114.5570 -6.4179 -43.5037
  -3.5608 -25.8772 -6.4202 -43.5064 -15.8386 114.3470
502.8230 -10.6624 162.4200 -3.5878 -26.5397 -3.5583 -26.3869
  -3.5793 -26.5404 -15.9294 113.5140 -6.4978 -44.1129
  -3.5595 -26.3334 -6.5002 -44.0915 -16.0068 113.3290
512.8200 -10.7018 162.0430 -3.5866 -27.0412 -3.5607 -26.8963
  -3.5836 -27.0241 -16.1236 112.4610 -6.5843 -44.7517
  -3.5611 -26.8670 -6.5841 -44.7213 -16.1802 112.3860
522.8170 -10.7367 161.6950 -3.5826 -27.5513 -3.5590 -27.4413
  -3.5816 -27.5418 -16.3159 111.4210 -6.6634 -45.3580
  -3.5650 -27.3973 -6.6668 -45.3736 -16.3580 111.5040
532.8130 -10.7665 161.2560 -3.5888 -28.0723 -3.5614 -27.9514
  -3.5812 -28.0578 -16.5070 110.4770 -6.7469 -45.9505
  -3.5646 -27.9136 -6.7551 -45.9626 -16.5523 110.6490
542.8090 -10.7987 160.8850 -3.5889 -28.6072 -3.5631 -28.4680
  -3.5844 -28.5895 -16.7043 109.5090 -6.8323 -46.5760
  -3.5633 -28.4240 -6.8373 -46.5496 -16.7578 109.7320
552.8060 -10.8136 160.4640 -3.5859 -29.1294 -3.5602 -28.9758
  -3.5822 -29.0777 -16.8960 108.5610 -6.9097 -47.0857
  -3.5660 -28.9441 -6.9234 -47.1062 -16.9660 108.7520
562.8020 -10.8363 160.1320 -3.5880 -29.6233 -3.5574 -29.4712
  -3.5829 -29.5958 -17.1011 107.7070 -6.9906 -47.6294
  -3.5609 -29.4471 -6.9956 -47.6685 -17.1813 107.8530
572.7990 -10.8503 159.7920 -3.5830 -30.1656 -3.5527 -30.0143
  -3.5797 -30.1192 -17.3154 106.8760 -7.0627 -48.2664
  -3.5620 -29.9803 -7.0771 -48.2843 -17.3955 106.8650
582.7950 -10.8700 159.6250 -3.5811 -30.7004 -3.5535 -30.5446
  -3.5794 -30.6382 -17.5671 106.1650 -7.1429 -48.8265
  -3.5604 -30.5056 -7.1570 -48.8300 -17.6252 106.0860
592.7920 -10.9006 159.3420 -3.5804 -31.1722 -3.5488 -31.0484
  -3.5776 -31.1731 -17.8074 105.2620 -7.2232 -49.3921
  -3.5569 -31.0200 -7.2346 -49.3850 -17.8480 105.1970
602.7880 -10.9125 159.1480 -3.5779 -31.7035 -3.5474 -31.5402
  -3.5766 -31.6707 -18.0580 104.3480 -7.3002 -49.9282
  -3.5541 -31.5373 -7.3077 -49.9508 -18.0699 104.2620
612.7850 -10.9392 158.8910 -3.5727 -32.1998 -3.5474 -32.0727
  -3.5727 -32.1499 -18.3298 103.4930 -7.3876 -50.4738
  -3.5570 -32.0424 -7.3984 -50.4238 -18.2734 103.4030
622.7810 -10.9723 158.6300 -3.5745 -32.7037 -3.5573 -32.5679
  -3.5761 -32.6907 -18.6018 102.5080 -7.4723 -51.0776
  -3.5577 -32.5718 -7.4739 -51.0722 -18.4928 102.5880
632.7780 -10.9993 158.3460 -3.5757 -33.1991 -3.5558 -33.0727
  -3.5759 -33.2522 -18.8585 101.4980 -7.5547 -51.6405
  -3.5609 -33.1367 -7.5605 -51.6361 -18.7174 102.0400
642.7740 -11.0337 158.0020 -3.5773 -33.7826 -3.5597 -33.6365
  -3.5731 -33.7238 -19.1067 100.5250 -7.6396 -52.1875
  -3.5601 -33.6209 -7.6420 -52.1861 -18.9442 101.3980
652.7710 -11.0686 157.6960 -3.5738 -34.2885 -3.5573 -34.1023
  -3.5702 -34.2607 -19.3508 99.4893 -7.7205 -52.7313
  -3.5618 -34.0805 -7.7293 -52.7057 -19.1866 100.7550
662.7670 -11.0929 157.3720 -3.5662 -34.8012 -3.5535 -34.6142
  -3.5672 -34.7570 -19.5977 98.5988 -7.8097 -53.2784
  -3.5620 -34.5915 -7.8188 -53.1879 -19.4610 100.2020
672.7640 -11.1138 157.0880 -3.5699 -35.3159 -3.5535 -35.1239
  -3.5729 -35.2790 -19.8206 97.8269 -7.8887 -53.8045
  -3.5525 -35.0885 -7.8932 -53.7641 -19.7300 99.6611
682.7600 -11.1374 156.8230 -3.5673 -35.8740 -3.5533 -35.6496
  -3.5675 -35.8487 -20.0591 97.1045 -7.9754 -54.3274
  -3.5490 -35.6370 -7.9755 -54.3546 -20.0297 99.2112
692.7560 -11.1408 156.5280 -3.5684 -36.3777 -3.5431 -36.1753
  -3.5653 -36.3726 -20.3109 96.4665 -8.0548 -54.8874
  -3.5435 -36.1658 -8.0572 -54.9007 -20.3358 98.5795
702.7530 -11.1687 156.3270 -3.5664 -36.9105 -3.5444 -36.6806
  -3.5671 -36.8591 -20.5786 95.6989 -8.1456 -55.3502
  -3.5413 -36.6477 -8.1477 -55.3842 -20.6680 97.8419
712.7490 -11.1943 156.0630 -3.5668 -37.3973 -3.5393 -37.1603
  -3.5621 -37.3688 -20.8444 95.0765 -8.2311 -55.8437
  -3.5403 -37.1631 -8.2376 -55.8781 -21.0025 97.0082
722.7460 -11.2214 155.8050 -3.5679 -37.8976 -3.5368 -37.7100
  -3.5690 -37.8920 -21.1379 94.2957 -8.3169 -56.4674
  -3.5410 -37.6913 -8.3220 -56.4309 -21.3209 96.0820
732.7420 -11.2488 155.5240 -3.5683 -38.4176 -3.5378 -38.2480
  -3.5720 -38.4097 -21.4247 93.5971 -8.4074 -56.9605
  -3.5390 -38.2354 -8.4121 -56.9592 -21.6410 95.1793
742.7390 -11.2838 155.2320 -3.5688 -38.9166 -3.5383 -38.7612
  -3.5698 -38.9584 -21.7092 92.7409 -8.4960 -57.5143
  -3.5445 -38.7698 -8.5015 -57.4631 -21.9544 94.1518
752.7350 -11.3279 154.8660 -3.5677 -39.4256 -3.5373 -39.2498
  -3.5695 -39.4295 -22.0118 91.8873 -8.5894 -57.9294
  -3.5394 -39.2430 -8.5907 -57.9350 -22.2502 93.0863
762.7320 -11.3644 154.5710 -3.5665 -39.9447 -3.5336 -39.7734
  -3.5687 -39.8584 -22.2802 90.9948 -8.6846 -58.3753
  -3.5349 -39.7486 -8.6740 -58.3991 -22.5314 92.1096
772.7280 -11.3961 154.1380 -3.5591 -40.4549 -3.5286 -40.3039
  -3.5615 -40.4580 -22.5984 90.0000 -8.7634 -58.8935
  -3.5355 -40.2904 -8.7693 -58.9174 -22.8228 91.2123
782.7250 -11.4394 153.7760 -3.5617 -40.9963 -3.5300 -40.8323
  -3.5552 -40.9786 -22.8874 89.2049 -8.8566 -59.3796
  -3.5334 -40.8380 -8.8583 -59.4451 -23.1070 90.5403
792.7210 -11.4749 153.3680 -3.5534 -41.5221 -3.5240 -41.3587
  -3.5505 -41.5199 -23.2041 88.4399 -8.9421 -59.9132
  -3.5252 -41.3601 -8.9456 -59.9180 -23.3999 89.9242
802.7180 -11.5103 153.0040 -3.5565 -42.0313 -3.5200 -41.8741
  -3.5507 -42.0153 -23.5093 87.3676 -9.0304 -60.3401
  -3.5256 -41.8313 -9.0335 -60.3903 -23.7336 89.3352
812.7140 -11.5497 152.6580 -3.5481 -42.5363 -3.5227 -42.3724
  -3.5480 -42.5427 -23.8378 87.0068 -9.1271 -60.8563
  -3.5227 -42.3537 -9.1277 -60.8317 -24.0840 88.7757
822.7110 -11.5773 152.3050 -3.5488 -43.0801 -3.5198 -42.8924
  -3.5492 -43.1042 -24.1609 86.4697 -9.2251 -61.3495
  -3.5193 -42.8819 -9.2202 -61.3538 -24.4669 88.3155
832.7070 -11.6041 151.9640 -3.5486 -43.6142 -3.5180 -43.4570
  -3.5472 -43.6276 -24.5362 86.0552 -9.3193 -61.8237
  -3.5230 -43.4297 -9.3100 -61.8427 -24.9008 87.7469
842.7030 -11.6392 151.5870 -3.5486 -44.1359 -3.5196 -44.0165
  -3.5457 -44.1273 -24.9259 85.4171 -9.4149 -62.2866
  -3.5216 -43.9791 -9.4024 -62.3606 -25.3348 86.9837
852.7000 -11.6631 151.2900 -3.5462 -44.6596 -3.5185 -44.4631
  -3.5451 -44.6587 -25.3643 84.8122 -9.5086 -62.7681
  -3.5275 -44.4811 -9.4974 -62.7974 -25.7894 86.2358
862.6970 -11.6947 151.0050 -3.5490 -45.1634 -3.5177 -44.9994
  -3.5410 -45.1553 -25.7911 83.9567 -9.5959 -63.2489
  -3.5213 -44.9972 -9.5873 -63.2604 -26.2573 85.2231
872.6930 -11.7136 150.6780 -3.5427 -45.6672 -3.5143 -45.5257
  -3.5358 -45.7140 -26.2222 83.1879 -9.6807 -63.7855
  -3.5171 -45.5255 -9.6791 -63.7517 -26.7118 84.2397
882.6890 -11.7320 150.3540 -3.5401 -46.1983 -3.5145 -46.0467
  -3.5384 -46.2105 -26.7056 82.1648 -9.7794 -64.2590
  -3.5131 -46.0507 -9.7718 -64.2853 -27.2240 83.3988
892.6860 -11.7683 150.0370 -3.5341 -46.7206 -3.5053 -46.5917
  -3.5370 -46.7195 -27.1265 81.2314 -9.8797 -64.7099
  -3.5071 -46.5862 -9.8682 -64.7551 -27.6469 82.2535
902.6820 -11.8110 149.6700 -3.5332 -47.2025 -3.4994 -47.0931
  -3.5298 -47.1903 -27.6034 80.1394 -9.9739 -65.1725
  -3.5041 -47.0522 -9.9660 -65.1978 -28.1122 81.2433
912.6790 -11.8540 149.2560 -3.5309 -47.7407 -3.4991 -47.6098
  -3.5282 -47.6964 -28.0780 79.1295 -10.0733 -65.6418
  -3.5028 -47.5723 -10.0659 -65.6741 -28.5722 80.1496
922.6750 -11.9142 148.8370 -3.5349 -48.2633 -3.5032 -48.1530
  -3.5255 -48.2540 -28.5512 78.2050 -10.1728 -66.1395
  -3.5052 -48.0905 -10.1706 -66.1720 -29.0882 79.4580
932.6720 -11.9593 148.4750 -3.5240 -48.8041 -3.4974 -48.6916
  -3.5223 -48.7765 -29.0429 77.5787 -10.2813 -66.6527
  -3.5035 -48.6714 -10.2644 -66.6440 -29.5964 78.4787
942.6680 -12.0119 148.0370 -3.5300 -49.3118 -3.5012 -49.2175
  -3.5225 -49.2952 -29.5401 77.0362 -10.3927 -67.0403
  -3.5075 -49.1326 -10.3699 -67.1173 -30.0967 77.5947
952.6650 -12.0675 147.6440 -3.5251 -49.8276 -3.4994 -49.7027
  -3.5224 -49.8375 -30.0327 75.2449 -10.4900 -67.5044
  -3.5053 -49.6816 -10.4786 -67.5044 -30.6719 76.3996
962.6610 -12.1156 147.2130 -3.5238 -50.3818 -3.4977 -50.2192
  -3.5222 -50.3662 -30.6377 74.9893 -10.6020 -67.9407
  -3.5030 -50.2042 -10.5864 -67.9475 -31.2343 75.6520
972.6580 -12.1635 146.7850 -3.5221 -50.8799 -3.4917 -50.7739
  -3.5197 -50.8876 -31.1325 73.7040 -10.7132 -68.3817
  -3.5030 -50.7649 -10.6951 -68.4269 -31.7747 74.5049
982.6540 -12.2081 146.3900 -3.5236 -51.4283 -3.4960 -51.3290
  -3.5183 -51.4366 -31.7465 72.7847 -10.8179 -68.8176
  -3.4992 -51.2943 -10.8038 -68.8426 -32.3878 73.0327
992.6510 -12.2599 145.9840 -3.5210 -51.9671 -3.4984 -51.8364
  -3.5148 -51.9608 -32.3768 71.3213 -10.9295 -69.2524
  -3.5027 -51.8156 -10.9157 -69.2779 -33.0108 71.7977
1002.6500 -12.3108 145.5590 -3.5216 -52.4927 -3.4920 -52.3798
  -3.5160 -52.4830 -33.1573 69.6982 -11.0302 -69.6626
  -3.4947 -52.3369 -11.0206 -69.6601 -33.6900 69.8628
1012.6400 -12.3631 145.0940 -3.5170 -53.0242 -3.4899 -52.8980
  -3.5122 -53.0072 -33.9440 67.7252 -11.1380 -70.1101
  -3.4933 -52.8821 -11.1245 -70.0897 -34.4545 68.7662
1022.6400 -12.4145 144.7470 -3.5072 -53.5805 -3.4884 -53.4131
  -3.5058 -53.5408 -34.7648 65.9261 -11.2479 -70.5619
  -3.4848 -53.4090 -11.2313 -70.5483 -35.2507 67.7857
1032.6400 -12.4588 144.3150 -3.5053 -54.0893 -3.4810 -53.9719
  -3.5020 -54.0797 -35.7466 64.3447 -11.3524 -71.0117
  -3.4819 -53.9582 -11.3441 -71.0528 -36.2321 67.2153
1042.6300 -12.5100 143.9100 -3.4972 -54.6492 -3.4734 -54.5225
  -3.4955 -54.6251 -36.8199 62.9356 -11.4567 -71.5149
  -3.4769 -54.5156 -11.4501 -71.5339 -37.3499 66.9387
1052.6300 -12.5762 143.5370 -3.4911 -55.1511 -3.4686 -55.0160
  -3.4888 -55.1327 -37.9954 59.8593 -11.5680 -71.8949
  -3.4736 -54.9893 -11.5600 -71.9281 -38.7571 66.3339
1062.6300 -12.6354 143.2000 -3.4929 -55.6503 -3.4683 -55.5084
  -3.4856 -55.6656 -39.2386 57.8127 -11.6847 -72.3569
  -3.4729 -55.5406 -11.6800 -72.3647 -40.1727 65.2485
1072.6200 -12.6897 142.7550 -3.4910 -56.1931 -3.4695 -56.0860
  -3.4890 -56.2002 -40.5777 54.4495 -11.8094 -72.7902
  -3.4743 -56.0793 -11.7995 -72.8175 -42.1514 65.3084
1082.6200 -12.7540 142.3430 -3.4889 -56.7499 -3.4623 -56.6237
  -3.4866 -56.7603 -42.1312 50.5914 -11.9392 -73.2633
  -3.4652 -56.6211 -11.9159 -73.2507 -44.6509 61.8388
1092.6200 -12.8167 141.8920 -3.4881 -57.2833 -3.4649 -57.1687
  -3.4886 -57.2904 -43.5449 44.7039 -12.0628 -73.6348
  -3.4675 -57.1355 -12.0403 -73.6436 -47.6330 55.1912
1102.6100 -12.8796 141.4350 -3.4857 -57.8330 -3.4605 -57.6806
  -3.4720 -57.8864 -45.2545 35.4495 -12.1824 -74.0775
  -3.4642 -57.6725 -12.1774 -74.0169 -50.9066 40.5343
1112.6100 -12.9372 140.9500 -3.4833 -58.3636 -3.4563 -58.1966
  -3.4759 -58.3772 -46.9864 22.9491 -12.3180 -74.4248
  -3.4645 -58.1989 -12.2905 -74.3983 -54.1781 -0.4180
1122.6000 -12.9894 140.3540 -3.4750 -58.8849 -3.4525 -58.7727
  -3.4746 -58.8972 -48.2500 6.3383 -12.4424 -74.7744
  -3.4549 -58.7642 -12.4202 -74.8016 -52.5070 -39.9363
1132.6000 -13.0386 139.8280 -3.4722 -59.4684 -3.4464 -59.3393
  -3.4705 -59.4636 -48.6466 -14.4571 -12.5612 -75.2015
  -3.4507 -59.3226 -12.5460 -75.1904 -48.8787 -60.8755
1142.6000 -13.0976 139.3070 -3.4669 -59.9904 -3.4406 -59.8801
  -3.4660 -60.0131 -47.9993 -34.3805 -12.6939 -75.6227
  -3.4460 -59.8498 -12.6697 -75.5998 -46.2236 -69.4344
1152.5900 -13.1590 138.7820 -3.4628 -60.5247 -3.4370 -60.3972
  -3.4610 -60.5419 -46.6073 -50.9163 -12.8141 -75.9955
  -3.4451 -60.3432 -12.8030 -75.9359 -44.1212 -75.0171
1162.5900 -13.2387 138.2770 -3.4607 -61.0739 -3.4337 -60.9460
  -3.4591 -61.0670 -44.7136 -63.6683 -12.9453 -76.3863
  -3.4356 -60.9639 -12.9262 -76.3942 -42.3171 -77.3775
1172.5900 -13.3206 137.8200 -3.4603 -61.6137 -3.4347 -61.4879
  -3.4522 -61.5954 -43.0896 -73.1969 -13.0738 -76.8118
  -3.4400 -61.4663 -13.0646 -76.7576 -40.8781 -81.8316
1182.5800 -13.4127 137.3740 -3.4561 -62.1709 -3.4349 -62.0487
  -3.4584 -62.1652 -41.6132 -79.8066 -13.2184 -77.2716
